! Generated from input.csv
! Topology: single_ended_pair; reciprocal=False
# Hz S RI R 50
1000 0 0 0 0 0 0 0 0 0 0 0 0 0 0 0 0 0.999964319 0 0 0 0 0 0 0 0 0 0.999964319 0 0 0 0 0
1031.39 0 0 0 0 0 0 0 0 0 0 0 0 0 0 0 0 0.999963739 0 0 0 0 0 0 0 0 0 0.999963739 0 0 0 0 0
1063.77 0 0 0 0 0 0 0 0 0 0 0 0 0 0 0 0 0.99996315 0 0 0 0 0 0 0 0 0 0.99996315 0 0 0 0 0
1097.17 0 0 0 0 0 0 0 0 0 0 0 0 0 0 0 0 0.99996255 0 0 0 0 0 0 0 0 0 0.99996255 0 0 0 0 0
1131.62 0 0 0 0 0 0 0 0 0 0 0 0 0 0 0 0 0.999961941 0 0 0 0 0 0 0 0 0 0.999961941 0 0 0 0 0
1167.14 0 0 0 0 0 0 0 0 0 0 0 0 0 0 0 0 0.999961321 0 0 0 0 0 0 0 0 0 0.999961321 0 0 0 0 0
1203.78 0 0 0 0 0 0 0 0 0 0 0 0 0 0 0 0 0.999960691 0 0 0 0 0 0 0 0 0 0.999960691 0 0 0 0 0
1241.58 0 0 0 0 0 0 0 0 0 0 0 0 0 0 0 0 0.99996005 0 0 0 0 0 0 0 0 0 0.99996005 0 0 0 0 0
1280.56 0 0 0 0 0 0 0 0 0 0 0 0 0 0 0 0 0.999959398 0 0 0 0 0 0 0 0 0 0.999959398 0 0 0 0 0
1320.76 0 0 0 0 0 0 0 0 0 0 0 0 0 0 0 0 0.999958735 0 0 0 0 0 0 0 0 0 0.999958735 0 0 0 0 0
1362.22 0 0 0 0 0 0 0 0 0 0 0 0 0 0 0 0 0.99995806 0 0 0 0 0 0 0 0 0 0.99995806 0 0 0 0 0
1404.99 0 0 0 0 0 0 0 0 0 0 0 0 0 0 0 0 0.999957375 0 0 0 0 0 0 0 0 0 0.999957375 0 0 0 0 0
1449.1 0 0 0 0 0 0 0 0 0 0 0 0 0 0 0 0 0.999956677 0 0 0 0 0 0 0 0 0 0.999956677 0 0 0 0 0
1494.59 0 0 0 0 0 0 0 0 0 0 0 0 0 0 0 0 0.999955968 0 0 0 0 0 0 0 0 0 0.999955968 0 0 0 0 0
1541.51 0 0 0 0 0 0 0 0 0 0 0 0 0 0 0 0 0.999955246 0 0 0 0 0 0 0 0 0 0.999955246 0 0 0 0 0
1589.91 0 0 0 0 0 0 0 0 0 0 0 0 0 0 0 0 0.999954512 0 0 0 0 0 0 0 0 0 0.999954512 0 0 0 0 0
1639.82 0 0 0 0 0 0 0 0 0 0 0 0 0 0 0 0 0.999953766 0 0 0 0 0 0 0 0 0 0.999953766 0 0 0 0 0
1691.3 0 0 0 0 0 0 0 0 0 0 0 0 0 0 0 0 0.999953006 0 0 0 0 0 0 0 0 0 0.999953006 0 0 0 0 0
1744.4 0 0 0 0 0 0 0 0 0 0 0 0 0 0 0 0 0.999952234 0 0 0 0 0 0 0 0 0 0.999952234 0 0 0 0 0
1799.17 0 0 0 0 0 0 0 0 0 0 0 0 0 0 0 0 0.999951448 0 0 0 0 0 0 0 0 0 0.999951448 0 0 0 0 0
1855.65 0 0 0 0 0 0 0 0 0 0 0 0 0 0 0 0 0.999950649 0 0 0 0 0 0 0 0 0 0.999950649 0 0 0 0 0
1913.91 0 0 0 0 0 0 0 0 0 0 0 0 0 0 0 0 0.999949836 0 0 0 0 0 0 0 0 0 0.999949836 0 0 0 0 0
1973.99 0 0 0 0 0 0 0 0 0 0 0 0 0 0 0 0 0.999949009 0 0 0 0 0 0 0 0 0 0.999949009 0 0 0 0 0
2035.96 0 0 0 0 0 0 0 0 0 0 0 0 0 0 0 0 0.999948167 0 0 0 0 0 0 0 0 0 0.999948167 0 0 0 0 0
2099.88 0 0 0 0 0 0 0 0 0 0 0 0 0 0 0 0 0.999947311 0 0 0 0 0 0 0 0 0 0.999947311 0 0 0 0 0
2165.81 0 0 0 0 0 0 0 0 0 0 0 0 0 0 0 0 0.99994644 0 0 0 0 0 0 0 0 0 0.99994644 0 0 0 0 0
2233.8 0 0 0 0 0 0 0 0 0 0 0 0 0 0 0 0 0.999945554 0 0 0 0 0 0 0 0 0 0.999945554 0 0 0 0 0
2303.93 0 0 0 0 0 0 0 0 0 0 0 0 0 0 0 0 0.999944653 0 0 0 0 0 0 0 0 0 0.999944653 0 0 0 0 0
2376.26 0 0 0 0 0 0 0 0 0 0 0 0 0 0 0 0 0.999943736 0 0 0 0 0 0 0 0 0 0.999943736 0 0 0 0 0
2450.86 0 0 0 0 0 0 0 0 0 0 0 0 0 0 0 0 0.999942802 0 0 0 0 0 0 0 0 0 0.999942802 0 0 0 0 0
2527.81 0 0 0 0 0 0 0 0 0 0 0 0 0 0 0 0 0.999941853 0 0 0 0 0 0 0 0 0 0.999941853 0 0 0 0 0
2607.16 0 0 0 0 0 0 0 0 0 0 0 0 0 0 0 0 0.999940887 0 0 0 0 0 0 0 0 0 0.999940887 0 0 0 0 0
2689.02 0 0 0 0 0 0 0 0 0 0 0 0 0 0 0 0 0.999939904 0 0 0 0 0 0 0 0 0 0.999939904 0 0 0 0 0
2773.44 0 0 0 0 0 0 0 0 0 0 0 0 0 0 0 0 0.999938903 0 0 0 0 0 0 0 0 0 0.999938903 0 0 0 0 0
2860.51 0 0 0 0 0 0 0 0 0 0 0 0 0 0 0 0 0.999937885 0 0 0 0 0 0 0 0 0 0.999937885 0 0 0 0 0
2950.31 0 0 0 0 0 0 0 0 0 0 0 0 0 0 0 0 0.999936849 0 0 0 0 0 0 0 0 0 0.999936849 0 0 0 0 0
3042.93 0 0 0 0 0 0 0 0 0 0 0 0 0 0 0 0 0.999935795 0 0 0 0 0 0 0 0 0 0.999935795 0 0 0 0 0
3138.46 0 0 0 0 0 0 0 0 0 0 0 0 0 0 0 0 0.999934722 0 0 0 0 0 0 0 0 0 0.999934722 0 0 0 0 0
3236.99 0 0 0 0 0 0 0 0 0 0 0 0 0 0 0 0 0.99993363 0 0 0 0 0 0 0 0 0 0.99993363 0 0 0 0 0
3338.62 0 0 0 0 0 0 0 0 0 0 0 0 0 0 0 0 0.999932519 0 0 0 0 0 0 0 0 0 0.999932519 0 0 0 0 0
3443.43 0 0 0 0 0 0 0 0 0 0 0 0 0 0 0 0 0.999931388 0 0 0 0 0 0 0 0 0 0.999931388 0 0 0 0 0
3551.54 0 0 0 0 0 0 0 0 0 0 0 0 0 0 0 0 0.999930237 0 0 0 0 0 0 0 0 0 0.999930237 0 0 0 0 0
3663.04 0 0 0 0 0 0 0 0 0 0 0 0 0 0 0 0 0.999929065 0 0 0 0 0 0 0 0 0 0.999929065 0 0 0 0 0
3778.03 0 0 0 0 0 0 0 0 0 0 0 0 0 0 0 0 0.999927873 0 0 0 0 0 0 0 0 0 0.999927873 0 0 0 0 0
3896.64 0 0 0 0 0 0 0 0 0 0 0 0 0 0 0 0 0.999926659 0 0 0 0 0 0 0 0 0 0.999926659 0 0 0 0 0
4018.98 0 0 0 0 0 0 0 0 0 0 0 0 0 0 0 0 0.999925423 0 0 0 0 0 0 0 0 0 0.999925423 0 0 0 0 0
4145.15 0 0 0 0 0 0 0 0 0 0 0 0 0 0 0 0 0.999924165 0 0 0 0 0 0 0 0 0 0.999924165 0 0 0 0 0
4275.29 0 0 0 0 0 0 0 0 0 0 0 0 0 0 0 0 0.999922885 0 0 0 0 0 0 0 0 0 0.999922885 0 0 0 0 0
4409.51 0 0 0 0 0 0 0 0 0 0 0 0 0 0 0 0 0.999921581 0 0 0 0 0 0 0 0 0 0.999921581 0 0 0 0 0
4547.94 0 0 0 0 0 0 0 0 0 0 0 0 0 0 0 0 0.999920254 0 0 0 0 0 0 0 0 0 0.999920254 0 0 0 0 0
4690.72 0 0 0 0 0 0 0 0 0 0 0 0 0 0 0 0 0.999918903 0 0 0 0 0 0 0 0 0 0.999918903 0 0 0 0 0
4837.98 0 0 0 0 0 0 0 0 0 0 0 0 0 0 0 0 0.999917528 0 0 0 0 0 0 0 0 0 0.999917528 0 0 0 0 0
4989.87 0 0 0 0 0 0 0 0 0 0 0 0 0 0 0 0 0.999916127 0 0 0 0 0 0 0 0 0 0.999916127 0 0 0 0 0
5146.52 0 0 0 0 0 0 0 0 0 0 0 0 0 0 0 0 0.999914701 0 0 0 0 0 0 0 0 0 0.999914701 0 0 0 0 0
5308.09 0 0 0 0 0 0 0 0 0 0 0 0 0 0 0 0 0.999913249 0 0 0 0 0 0 0 0 0 0.999913249 0 0 0 0 0
5474.74 0 0 0 0 0 0 0 0 0 0 0 0 0 0 0 0 0.999911771 0 0 0 0 0 0 0 0 0 0.999911771 0 0 0 0 0
5646.62 0 0 0 0 0 0 0 0 0 0 0 0 0 0 0 0 0.999910265 0 0 0 0 0 0 0 0 0 0.999910265 0 0 0 0 0
5823.89 0 0 0 0 0 0 0 0 0 0 0 0 0 0 0 0 0.999908732 0 0 0 0 0 0 0 0 0 0.999908732 0 0 0 0 0
6006.73 0 0 0 0 0 0 0 0 0 0 0 0 0 0 0 0 0.999907171 0 0 0 0 0 0 0 0 0 0.999907171 0 0 0 0 0
6195.3 0 0 0 0 0 0 0 0 0 0 0 0 0 0 0 0 0.999905581 0 0 0 0 0 0 0 0 0 0.999905581 0 0 0 0 0
6389.8 0 0 0 0 0 0 0 0 0 0 0 0 0 0 0 0 0.999903962 0 0 0 0 0 0 0 0 0 0.999903962 0 0 0 0 0
6590.41 0 0 0 0 0 0 0 0 0 0 0 0 0 0 0 0 0.999902313 0 0 0 0 0 0 0 0 0 0.999902313 0 0 0 0 0
6797.31 0 0 0 0 0 0 0 0 0 0 0 0 0 0 0 0 0.999900633 0 0 0 0 0 0 0 0 0 0.999900633 0 0 0 0 0
7010.71 0 0 0 0 0 0 0 0 0 0 0 0 0 0 0 0 0.999898922 0 0 0 0 0 0 0 0 0 0.999898922 0 0 0 0 0
7230.8 0 0 0 0 0 0 0 0 0 0 0 0 0 0 0 0 0.99989718 0 0 0 0 0 0 0 0 0 0.99989718 0 0 0 0 0
7457.81 0 0 0 0 0 0 0 0 0 0 0 0 0 0 0 0 0.999895404 0 0 0 0 0 0 0 0 0 0.999895404 0 0 0 0 0
7691.94 0 0 0 0 0 0 0 0 0 0 0 0 0 0 0 0 0.999893596 0 0 0 0 0 0 0 0 0 0.999893596 0 0 0 0 0
7933.43 0 0 0 0 0 0 0 0 0 0 0 0 0 0 0 0 0.999891754 0 0 0 0 0 0 0 0 0 0.999891754 0 0 0 0 0
8182.49 0 0 0 0 0 0 0 0 0 0 0 0 0 0 0 0 0.999889878 0 0 0 0 0 0 0 0 0 0.999889878 0 0 0 0 0
8439.38 0 0 0 0 0 0 0 0 0 0 0 0 0 0 0 0 0.999887966 0 0 0 0 0 0 0 0 0 0.999887966 0 0 0 0 0
8704.33 0 0 0 0 0 0 0 0 0 0 0 0 0 0 0 0 0.999886018 0 0 0 0 0 0 0 0 0 0.999886018 0 0 0 0 0
8977.6 0 0 0 0 0 0 0 0 0 0 0 0 0 0 0 0 0.999884034 0 0 0 0 0 0 0 0 0 0.999884034 0 0 0 0 0
9259.44 0 0 0 0 0 0 0 0 0 0 0 0 0 0 0 0 0.999882012 0 0 0 0 0 0 0 0 0 0.999882012 0 0 0 0 0
9550.14 0 0 0 0 0 0 0 0 0 0 0 0 0 0 0 0 0.999879952 0 0 0 0 0 0 0 0 0 0.999879952 0 0 0 0 0
9849.96 0 0 0 0 0 0 0 0 0 0 0 0 0 0 0 0 0.999877852 0 0 0 0 0 0 0 0 0 0.999877852 0 0 0 0 0
10159.2 0 0 0 0 0 0 0 0 0 0 0 0 0 0 0 0 0.999875713 0 0 0 0 0 0 0 0 0 0.999875713 0 0 0 0 0
10478.1 0 0 0 0 0 0 0 0 0 0 0 0 0 0 0 0 0.999873533 0 0 0 0 0 0 0 0 0 0.999873533 0 0 0 0 0
10807.1 0 0 0 0 0 0 0 0 0 0 0 0 0 0 0 0 0.99987131 0 0 0 0 0 0 0 0 0 0.99987131 0 0 0 0 0
11146.4 0 0 0 0 0 0 0 0 0 0 0 0 0 0 0 0 0.999869046 0 0 0 0 0 0 0 0 0 0.999869046 0 0 0 0 0
11496.3 0 0 0 0 0 0 0 0 0 0 0 0 0 0 0 0 0.999866738 0 0 0 0 0 0 0 0 0 0.999866738 0 0 0 0 0
11857.2 0 0 0 0 0 0 0 0 0 0 0 0 0 0 0 0 0.999864386 0 0 0 0 0 0 0 0 0 0.999864386 0 0 0 0 0
12229.5 0 0 0 0 0 0 0 0 0 0 0 0 0 0 0 0 0.999861988 0 0 0 0 0 0 0 0 0 0.999861988 0 0 0 0 0
12613.4 0 0 0 0 0 0 0 0 0 0 0 0 0 0 0 0 0.999859543 0 0 0 0 0 0 0 0 0 0.999859543 0 0 0 0 0
13009.4 0 0 0 0 0 0 0 0 0 0 0 0 0 0 0 0 0.999857052 0 0 0 0 0 0 0 0 0 0.999857052 0 0 0 0 0
13417.8 0 0 0 0 0 0 0 0 0 0 0 0 0 0 0 0 0.999854511 0 0 0 0 0 0 0 0 0 0.999854511 0 0 0 0 0
13839.1 0 0 0 0 0 0 0 0 0 0 0 0 0 0 0 0 0.999851923 0 0 0 0 0 0 0 0 0 0.999851923 0 0 0 0 0
14273.5 0 0 0 0 0 0 0 0 0 0 0 0 0 0 0 0 0.999849282 0 0 0 0 0 0 0 0 0 0.999849282 0 0 0 0 0
14721.7 0 0 0 0 0 0 0 0 0 0 0 0 0 0 0 0 0.999846591 0 0 0 0 0 0 0 0 0 0.999846591 0 0 0 0 0
15183.8 0 0 0 0 0 0 0 0 0 0 0 0 0 0 0 0 0.999843845 0 0 0 0 0 0 0 0 0 0.999843845 0 0 0 0 0
15660.5 0 0 0 0 0 0 0 0 0 0 0 0 0 0 0 0 0.999841047 0 0 0 0 0 0 0 0 0 0.999841047 0 0 0 0 0
16152.2 0 0 0 0 0 0 0 0 0 0 0 0 0 0 0 0 0.999838192 0 0 0 0 0 0 0 0 0 0.999838192 0 0 0 0 0
16659.3 0 0 0 0 0 0 0 0 0 0 0 0 0 0 0 0 0.999835282 0 0 0 0 0 0 0 0 0 0.999835282 0 0 0 0 0
17182.3 0 0 0 0 0 0 0 0 0 0 0 0 0 0 0 0 0.999832314 0 0 0 0 0 0 0 0 0 0.999832314 0 0 0 0 0
17721.7 0 0 0 0 0 0 0 0 0 0 0 0 0 0 0 0 0.999829287 0 0 0 0 0 0 0 0 0 0.999829287 0 0 0 0 0
18278.1 0 0 0 0 0 0 0 0 0 0 0 0 0 0 0 0 0.999826199 0 0 0 0 0 0 0 0 0 0.999826199 0 0 0 0 0
18851.9 0 0 0 0 0 0 0 0 0 0 0 0 0 0 0 0 0.99982305 0 0 0 0 0 0 0 0 0 0.99982305 0 0 0 0 0
19443.7 0 0 0 0 0 0 0 0 0 0 0 0 0 0 0 0 0.999819838 0 0 0 0 0 0 0 0 0 0.999819838 0 0 0 0 0
20054.2 0 0 0 0 0 0 0 0 0 0 0 0 0 0 0 0 0.999816561 0 0 0 0 0 0 0 0 0 0.999816561 0 0 0 0 0
20683.8 0 0 0 0 0 0 0 0 0 0 0 0 0 0 0 0 0.999813218 0 0 0 0 0 0 0 0 0 0.999813218 0 0 0 0 0
21333.1 0 0 0 0 0 0 0 0 0 0 0 0 0 0 0 0 0.999809807 0 0 0 0 0 0 0 0 0 0.999809807 0 0 0 0 0
22002.9 0 0 0 0 0 0 0 0 0 0 0 0 0 0 0 0 0.999806328 0 0 0 0 0 0 0 0 0 0.999806328 0 0 0 0 0
22693.6 0 0 0 0 0 0 0 0 0 0 0 0 0 0 0 0 0.999802778 0 0 0 0 0 0 0 0 0 0.999802778 0 0 0 0 0
23406.1 0 0 0 0 0 0 0 0 0 0 0 0 0 0 0 0 0.999799155 0 0 0 0 0 0 0 0 0 0.999799155 0 0 0 0 0
24140.9 0 0 0 0 0 0 0 0 0 0 0 0 0 0 0 0 0.999795458 0 0 0 0 0 0 0 0 0 0.999795458 0 0 0 0 0
24898.8 0 0 0 0 0 0 0 0 0 0 0 0 0 0 0 0 0.999791686 0 0 0 0 0 0 0 0 0 0.999791686 0 0 0 0 0
25680.5 0 0 0 0 0 0 0 0 0 0 0 0 0 0 0 0 0.999787836 0 0 0 0 0 0 0 0 0 0.999787836 0 0 0 0 0
26486.7 0 0 0 0 0 0 0 0 0 0 0 0 0 0 0 0 0.999783907 0 0 0 0 0 0 0 0 0 0.999783907 0 0 0 0 0
27318.2 0 0 0 0 0 0 0 0 0 0 0 0 0 0 0 0 0.999779897 0 0 0 0 0 0 0 0 0 0.999779897 0 0 0 0 0
28175.9 0 0 0 0 0 0 0 0 0 0 0 0 0 0 0 0 0.999775803 0 0 0 0 0 0 0 0 0 0.999775803 0 0 0 0 0
29060.4 0 0 0 0 0 0 0 0 0 0 0 0 0 0 0 0 0.999771625 0 0 0 0 0 0 0 0 0 0.999771625 0 0 0 0 0
29972.8 0 0 0 0 0 0 0 0 0 0 0 0 0 0 0 0 0.999767359 0 0 0 0 0 0 0 0 0 0.999767359 0 0 0 0 0
30913.7 0 0 0 0 0 0 0 0 0 0 0 0 0 0 0 0 0.999763005 0 0 0 0 0 0 0 0 0 0.999763005 0 0 0 0 0
31884.3 0 0 0 0 0 0 0 0 0 0 0 0 0 0 0 0 0.999758558 0 0 0 0 0 0 0 0 0 0.999758558 0 0 0 0 0
32885.3 0 0 0 0 0 0 0 0 0 0 0 0 0 0 0 0 0.99975402 0 0 0 0 0 0 0 0 0 0.99975402 0 0 0 0 0
33917.7 0 0 0 0 0 0 0 0 0 0 0 0 0 0 0 0 0.999749385 0 0 0 0 0 0 0 0 0 0.999749385 0 0 0 0 0
34982.5 0 0 0 0 0 0 0 0 0 0 0 0 0 0 0 0 0.999744651 0 0 0 0 0 0 0 0 0 0.999744651 0 0 0 0 0
36080.8 0 0 0 0 0 0 0 0 0 0 0 0 0 0 0 0 0.999739818 0 0 0 0 0 0 0 0 0 0.999739818 0 0 0 0 0
37213.5 0 0 0 0 0 0 0 0 0 0 0 0 0 0 0 0 0.999734881 0 0 0 0 0 0 0 0 0 0.999734881 0 0 0 0 0
38381.8 0 0 0 0 0 0 0 0 0 0 0 0 0 0 0 0 0.99972984 0 0 0 0 0 0 0 0 0 0.99972984 0 0 0 0 0
39586.8 0 0 0 0 0 0 0 0 0 0 0 0 0 0 0 0 0.99972469 0 0 0 0 0 0 0 0 0 0.99972469 0 0 0 0 0
40829.6 0 0 0 0 0 0 0 0 0 0 0 0 0 0 0 0 0.999719429 0 0 0 0 0 0 0 0 0 0.999719429 0 0 0 0 0
42111.4 0 0 0 0 0 0 0 0 0 0 0 0 0 0 0 0 0.999714055 0 0 0 0 0 0 0 0 0 0.999714055 0 0 0 0 0
43433.5 0 0 0 0 0 0 0 0 0 0 0 0 0 0 0 0 0.999708566 0 0 0 0 0 0 0 0 0 0.999708566 0 0 0 0 0
44797 0 0 0 0 0 0 0 0 0 0 0 0 0 0 0 0 0.999702958 0 0 0 0 0 0 0 0 0 0.999702958 0 0 0 0 0
46203.4 0 0 0 0 0 0 0 0 0 0 0 0 0 0 0 0 0.999697226 0 0 0 0 0 0 0 0 0 0.999697226 0 0 0 0 0
47653.9 0 0 0 0 0 0 0 0 0 0 0 0 0 0 0 0 0.999691371 0 0 0 0 0 0 0 0 0 0.999691371 0 0 0 0 0
49150 0 0 0 0 0 0 0 0 0 0 0 0 0 0 0 0 0.999685386 0 0 0 0 0 0 0 0 0 0.999685386 0 0 0 0 0
50693 0 0 0 0 0 0 0 0 0 0 0 0 0 0 0 0 0.999679271 0 0 0 0 0 0 0 0 0 0.999679271 0 0 0 0 0
52284.5 0 0 0 0 0 0 0 0 0 0 0 0 0 0 0 0 0.999673021 0 0 0 0 0 0 0 0 0 0.999673021 0 0 0 0 0
53926 0 0 0 0 0 0 0 0 0 0 0 0 0 0 0 0 0.999666633 0 0 0 0 0 0 0 0 0 0.999666633 0 0 0 0 0
55618.9 0 0 0 0 0 0 0 0 0 0 0 0 0 0 0 0 0.999660103 0 0 0 0 0 0 0 0 0 0.999660103 0 0 0 0 0
57365.1 0 0 0 0 0 0 0 0 0 0 0 0 0 0 0 0 0.999653428 0 0 0 0 0 0 0 0 0 0.999653428 0 0 0 0 0
59166 0 0 0 0 0 0 0 0 0 0 0 0 0 0 0 0 0.999646603 0 0 0 0 0 0 0 0 0 0.999646603 0 0 0 0 0
61023.5 0 0 0 0 0 0 0 0 0 0 0 0 0 0 0 0 0.999639625 0 0 0 0 0 0 0 0 0 0.999639625 0 0 0 0 0
62939.3 0 0 0 0 0 0 0 0 0 0 0 0 0 0 0 0 0.999632491 0 0 0 0 0 0 0 0 0 0.999632491 0 0 0 0 0
64915.2 0 0 0 0 0 0 0 0 0 0 0 0 0 0 0 0 0.999625197 0 0 0 0 0 0 0 0 0 0.999625197 0 0 0 0 0
66953.2 0 0 0 0 0 0 0 0 0 0 0 0 0 0 0 0 0.999617736 0 0 0 0 0 0 0 0 0 0.999617736 0 0 0 0 0
69055.2 0 0 0 0 0 0 0 0 0 0 0 0 0 0 0 0 0.999610106 0 0 0 0 0 0 0 0 0 0.999610106 0 0 0 0 0
71223.1 0 0 0 0 0 0 0 0 0 0 0 0 0 0 0 0 0.999602303 0 0 0 0 0 0 0 0 0 0.999602303 0 0 0 0 0
73459.1 0 0 0 0 0 0 0 0 0 0 0 0 0 0 0 0 0.99959432 0 0 0 0 0 0 0 0 0 0.99959432 0 0 0 0 0
75765.3 0 0 0 0 0 0 0 0 0 0 0 0 0 0 0 0 0.999586155 0 0 0 0 0 0 0 0 0 0.999586155 0 0 0 0 0
78143.9 0 0 0 0 0 0 0 0 0 0 0 0 0 0 0 0 0.999577801 0 0 0 0 0 0 0 0 0 0.999577801 0 0 0 0 0
80597.2 0 0 0 0 0 0 0 0 0 0 0 0 0 0 0 0 0.999569254 0 0 0 0 0 0 0 0 0 0.999569254 0 0 0 0 0
83127.5 0 0 0 0 0 0 0 0 0 0 0 0 0 0 0 0 0.999560509 0 0 0 0 0 0 0 0 0 0.999560509 0 0 0 0 0
85737.3 0 0 0 0 0 0 0 0 0 0 0 0 0 0 0 0 0.999551559 0 0 0 0 0 0 0 0 0 0.999551559 0 0 0 0 0
88429 0 0 0 0 0 0 0 0 0 0 0 0 0 0 0 0 0.9995424 0 0 0 0 0 0 0 0 0 0.9995424 0 0 0 0 0
91205.1 0 0 0 0 0 0 0 0 0 0 0 0 0 0 0 0 0.999533027 0 0 0 0 0 0 0 0 0 0.999533027 0 0 0 0 0
94068.5 0 0 0 0 0 0 0 0 0 0 0 0 0 0 0 0 0.999523434 0 0 0 0 0 0 0 0 0 0.999523434 0 0 0 0 0
97021.7 0 0 0 0 0 0 0 0 0 0 0 0 0 0 0 0 0.999513612 0 0 0 0 0 0 0 0 0 0.999513612 0 0 0 0 0
100068 0 0 0 0 0 0 0 0 0 0 0 0 0 0 0 0 0.999503557 0 0 0 0 0 0 0 0 0 0.999503557 0 0 0 0 0
103209 0 0 0 0 0 0 0 0 0 0 0 0 0 0 0 0 0.999493263 0 0 0 0 0 0 0 0 0 0.999493263 0 0 0 0 0
106449 0 0 0 0 0 0 0 0 0 0 0 0 0 0 0 0 0.999482722 0 0 0 0 0 0 0 0 0 0.999482722 0 0 0 0 0
109791 0 0 0 0 0 0 0 0 0 0 0 0 0 0 0 0 0.999471929 0 0 0 0 0 0 0 0 0 0.999471929 0 0 0 0 0
113238 0 0 0 0 0 0 0 0 0 0 0 0 0 0 0 0 0.999460875 0 0 0 0 0 0 0 0 0 0.999460875 0 0 0 0 0
116793 0 0 0 0 0 0 0 0 0 0 0 0 0 0 0 0 0.999449553 0 0 0 0 0 0 0 0 0 0.999449553 0 0 0 0 0
120460 0 0 0 0 0 0 0 0 0 0 0 0 0 0 0 0 0.999437955 0 0 0 0 0 0 0 0 0 0.999437955 0 0 0 0 0
124242 0 0 0 0 0 0 0 0 0 0 0 0 0 0 0 0 0.999426075 0 0 0 0 0 0 0 0 0 0.999426075 0 0 0 0 0
128142 0 0 0 0 0 0 0 0 0 0 0 0 0 0 0 0 0.999413904 0 0 0 0 0 0 0 0 0 0.999413904 0 0 0 0 0
132165 0 0 0 0 0 0 0 0 0 0 0 0 0 0 0 0 0.999401432 0 0 0 0 0 0 0 0 0 0.999401432 0 0 0 0 0
136314 0 0 0 0 0 0 0 0 0 0 0 0 0 0 0 0 0.999388653 0 0 0 0 0 0 0 0 0 0.999388653 0 0 0 0 0
140594 0 0 0 0 0 0 0 0 0 0 0 0 0 0 0 0 0.999375556 0 0 0 0 0 0 0 0 0 0.999375556 0 0 0 0 0
145008 0 0 0 0 0 0 0 0 0 0 0 0 0 0 0 0 0.999362132 0 0 0 0 0 0 0 0 0 0.999362132 0 0 0 0 0
149560 0 0 0 0 0 0 0 0 0 0 0 0 0 0 0 0 0.999348372 0 0 0 0 0 0 0 0 0 0.999348372 0 0 0 0 0
154256 0 0 0 0 0 0 0 0 0 0 0 0 0 0 0 0 0.999334267 0 0 0 0 0 0 0 0 0 0.999334267 0 0 0 0 0
159098 0 0 0 0 0 0 0 0 0 0 0 0 0 0 0 0 0.999319805 0 0 0 0 0 0 0 0 0 0.999319805 0 0 0 0 0
164093 0 0 0 0 0 0 0 0 0 0 0 0 0 0 0 0 0.999304975 0 0 0 0 0 0 0 0 0 0.999304975 0 0 0 0 0
169245 0 0 0 0 0 0 0 0 0 0 0 0 0 0 0 0 0.999289768 0 0 0 0 0 0 0 0 0 0.999289768 0 0 0 0 0
174558 0 0 0 0 0 0 0 0 0 0 0 0 0 0 0 0 0.999274171 0 0 0 0 0 0 0 0 0 0.999274171 0 0 0 0 0
180038 0 0 0 0 0 0 0 0 0 0 0 0 0 0 0 0 0.999258173 0 0 0 0 0 0 0 0 0 0.999258173 0 0 0 0 0
185690 0 0 0 0 0 0 0 0 0 0 0 0 0 0 0 0 0.999241761 0 0 0 0 0 0 0 0 0 0.999241761 0 0 0 0 0
191520 0 0 0 0 0 0 0 0 0 0 0 0 0 0 0 0 0.999224923 0 0 0 0 0 0 0 0 0 0.999224923 0 0 0 0 0
197533 0 0 0 0 0 0 0 0 0 0 0 0 0 0 0 0 0.999207646 0 0 0 0 0 0 0 0 0 0.999207646 0 0 0 0 0
203734 0 0 0 0 0 0 0 0 0 0 0 0 0 0 0 0 0.999189915 0 0 0 0 0 0 0 0 0 0.999189915 0 0 0 0 0
210130 0 0 0 0 0 0 0 0 0 0 0 0 0 0 0 0 0.999171718 0 0 0 0 0 0 0 0 0 0.999171718 0 0 0 0 0
216727 0 0 0 0 0 0 0 0 0 0 0 0 0 0 0 0 0.999153039 0 0 0 0 0 0 0 0 0 0.999153039 0 0 0 0 0
223531 0 0 0 0 0 0 0 0 0 0 0 0 0 0 0 0 0.999133863 0 0 0 0 0 0 0 0 0 0.999133863 0 0 0 0 0
230549 0 0 0 0 0 0 0 0 0 0 0 0 0 0 0 0 0.999114174 0 0 0 0 0 0 0 0 0 0.999114174 0 0 0 0 0
237787 0 0 0 0 0 0 0 0 0 0 0 0 0 0 0 0 0.999093957 0 0 0 0 0 0 0 0 0 0.999093957 0 0 0 0 0
245252 0 0 0 0 0 0 0 0 0 0 0 0 0 0 0 0 0.999073193 0 0 0 0 0 0 0 0 0 0.999073193 0 0 0 0 0
252952 0 0 0 0 0 0 0 0 0 0 0 0 0 0 0 0 0.999051864 0 0 0 0 0 0 0 0 0 0.999051864 0 0 0 0 0
260893 0 0 0 0 0 0 0 0 0 0 0 0 0 0 0 0 0.999029954 0 0 0 0 0 0 0 0 0 0.999029954 0 0 0 0 0
269083 0 0 0 0 0 0 0 0 0 0 0 0 0 0 0 0 0.999007443 0 0 0 0 0 0 0 0 0 0.999007443 0 0 0 0 0
277531 0 0 0 0 0 0 0 0 0 0 0 0 0 0 0 0 0.998984311 0 0 0 0 0 0 0 0 0 0.998984311 0 0 0 0 0
286244 0 0 0 0 0 0 0 0 0 0 0 0 0 0 0 0 0.998960538 0 0 0 0 0 0 0 0 0 0.998960538 0 0 0 0 0
295231 0 0 0 0 0 0 0 0 0 0 0 0 0 0 0 0 0.998936101 0 0 0 0 0 0 0 0 0 0.998936101 0 0 0 0 0
304499 0 0 0 0 0 0 0 0 0 0 0 0 0 0 0 0 0.998910979 0 0 0 0 0 0 0 0 0 0.998910979 0 0 0 0 0
314059 0 0 0 0 0 0 0 0 0 0 0 0 0 0 0 0 0.99888515 0 0 0 0 0 0 0 0 0 0.99888515 0 0 0 0 0
323918 0 0 0 0 0 0 0 0 0 0 0 0 0 0 0 0 0.998858587 0 0 0 0 0 0 0 0 0 0.998858587 0 0 0 0 0
334088 0 0 0 0 0 0 0 0 0 0 0 0 0 0 0 0 0.99883127 0 0 0 0 0 0 0 0 0 0.99883127 0 0 0 0 0
344576 0 0 0 0 0 0 0 0 0 0 0 0 0 0 0 0 0.998803165 0 0 0 0 0 0 0 0 0 0.998803165 0 0 0 0 0
355394 0 0 0 0 0 0 0 0 0 0 0 0 0 0 0 0 0.998774245 0 0 0 0 0 0 0 0 0 0.998774245 0 0 0 0 0
366551 0 0 0 0 0 0 0 0 0 0 0 0 0 0 0 0 0.998744498 0 0 0 0 0 0 0 0 0 0.998744498 0 0 0 0 0
378059 0 0 0 0 0 0 0 0 0 0 0 0 0 0 0 0 0.998713878 0 0 0 0 0 0 0 0 0 0.998713878 0 0 0 0 0
389928 0 0 0 0 0 0 0 0 0 0 0 0 0 0 0 0 0.998682351 0 0 0 0 0 0 0 0 0 0.998682351 0 0 0 0 0
402170 0 0 0 0 0 0 0 0 0 0 0 0 0 0 0 0 0.998649905 0 0 0 0 0 0 0 0 0 0.998649905 0 0 0 0 0
414795 0 0 0 0 0 0 0 0 0 0 0 0 0 0 0 0 0.998616483 0 0 0 0 0 0 0 0 0 0.998616483 0 0 0 0 0
427818 0 0 0 0 0 0 0 0 0 0 0 0 0 0 0 0 0.998582073 0 0 0 0 0 0 0 0 0 0.998582073 0 0 0 0 0
441249 0 0 0 0 0 0 0 0 0 0 0 0 0 0 0 0 0.998546618 0 0 0 0 0 0 0 0 0 0.998546618 0 0 0 0 0
455102 0 0 0 0 0 0 0 0 0 0 0 0 0 0 0 0 0.998510095 0 0 0 0 0 0 0 0 0 0.998510095 0 0 0 0 0
469389 0 0 0 0 0 0 0 0 0 0 0 0 0 0 0 0 0.998472459 0 0 0 0 0 0 0 0 0 0.998472459 0 0 0 0 0
484125 0 0 0 0 0 0 0 0 0 0 0 0 0 0 0 0 0.998433663 0 0 0 0 0 0 0 0 0 0.998433663 0 0 0 0 0
499324 0 0 0 0 0 0 0 0 0 0 0 0 0 0 0 0 0.998393684 0 0 0 0 0 0 0 0 0 0.998393684 0 0 0 0 0
515000 0 0 0 0 0 0 0 0 0 0 0 0 0 0 0 0 0.998352443 0 0 0 0 0 0 0 0 0 0.998352443 0 0 0 0 0
531168 0 0 0 0 0 0 0 0 0 0 0 0 0 0 0 0 0.998309928 0 0 0 0 0 0 0 0 0 0.998309928 0 0 0 0 0
547844 0 0 0 0 0 0 0 0 0 0 0 0 0 0 0 0 0.99826607 0 0 0 0 0 0 0 0 0 0.99826607 0 0 0 0 0
565043 0 0 0 0 0 0 0 0 0 0 0 0 0 0 0 0 0.998220823 0 0 0 0 0 0 0 0 0 0.998220823 0 0 0 0 0
582783 0 0 0 0 0 0 0 0 0 0 0 0 0 0 0 0 0.99817413 0 0 0 0 0 0 0 0 0 0.99817413 0 0 0 0 0
601079 0 0 0 0 0 0 0 0 0 0 0 0 0 0 0 0 0.998125934 0 0 0 0 0 0 0 0 0 0.998125934 0 0 0 0 0
619949 0 0 0 0 0 0 0 0 0 0 0 0 0 0 0 0 0.998076178 0 0 0 0 0 0 0 0 0 0.998076178 0 0 0 0 0
639412 0 0 0 0 0 0 0 0 0 0 0 0 0 0 0 0 0.998024804 0 0 0 0 0 0 0 0 0 0.998024804 0 0 0 0 0
659486 0 0 0 0 0 0 0 0 0 0 0 0 0 0 0 0 0.997971755 0 0 0 0 0 0 0 0 0 0.997971755 0 0 0 0 0
680191 0 0 0 0 0 0 0 0 0 0 0 0 0 0 0 0 0.99791694 0 0 0 0 0 0 0 0 0 0.99791694 0 0 0 0 0
701545 0 0 0 0 0 0 0 0 0 0 0 0 0 0 0 0 0.997860313 0 0 0 0 0 0 0 0 0 0.997860313 0 0 0 0 0
723569 0 0 0 0 0 0 0 0 0 0 0 0 0 0 0 0 0.997801781 0 0 0 0 0 0 0 0 0 0.997801781 0 0 0 0 0
746285 0 0 0 0 0 0 0 0 0 0 0 0 0 0 0 0 0.997741278 0 0 0 0 0 0 0 0 0 0.997741278 0 0 0 0 0
769715 0 0 0 0 0 0 0 0 0 0 0 0 0 0 0 0 0.997678722 0 0 0 0 0 0 0 0 0 0.997678722 0 0 0 0 0
793879 0 0 0 0 0 0 0 0 0 0 0 0 0 0 0 0 0.997614023 0 0 0 0 0 0 0 0 0 0.997614023 0 0 0 0 0
